
**** 07/02/24 03:55:34 ***** PSpice 16.6.0 (October 2012) ***** ID# 0 ********

 ** Profile: "SCHEMATIC1-cc"  [ C:\USERS\SEPTIMIU\DOCUMENTS\DIDACTIC\TCRME\2023\ProiectTCAD-PSpiceFiles\SCHEMATIC1\cc.sim ] 


 ****     CIRCUIT DESCRIPTION


******************************************************************************




** Creating circuit file "cc.cir" 
** WARNING: THIS AUTOMATICALLY GENERATED FILE MAY BE OVERWRITTEN BY SUBSEQUENT SIMULATIONS

*Libraries: 
* Profile Libraries :
* Local Libraries :
* From [PSPICE NETLIST] section of C:\Users\Septimiu\AppData\Roaming\SPB_Data\cdssetup\OrCAD_PSpice/16.6.0/PSpice.ini file:
.lib "nom.lib" 

*Analysis directives: 
.OPTIONS ADVCONV
.PROBE64 V(alias(*)) I(alias(*)) W(alias(*)) D(alias(*)) NOISE(alias(*)) 
.INC "..\SCHEMATIC1.net" 



**** INCLUDING SCHEMATIC1.net ****
* source PROIECTTCAD
Q_Q1         IS N00262 N00254 Q2N2907
Q_Q2         N00262 N00262 N00258 Q2N2907
R_R1         N00258 N00230  1k TC=0,0 
R_R2         N00254 N00230  1k TC=0,0 
R_Rref         0 N00262  107k TC=0,0 
R_R4         0 IS  {Rp} TC=0,0 
V_V1         N00230 0 18Vdc
.PARAM  rp=50k

**** RESUMING cc.cir ****
.END

**** 07/02/24 03:55:34 ***** PSpice 16.6.0 (October 2012) ***** ID# 0 ********

 ** Profile: "SCHEMATIC1-cc"  [ C:\USERS\SEPTIMIU\DOCUMENTS\DIDACTIC\TCRME\2023\ProiectTCAD-PSpiceFiles\SCHEMATIC1\cc.sim ] 


 ****     BJT MODEL PARAMETERS


******************************************************************************




               Q2N2907         
               PNP             
       LEVEL    1            
          IS  650.600000E-18 
          BF  231.7          
          NF    1            
         VAF  115.7          
         IKF    1.079        
         ISE   54.810000E-15 
          NE    1.829        
          BR    3.563        
          NR    1            
         ISS    0            
          RB   10            
          RE    0            
          RC     .715        
         CJE   19.820000E-12 
         VJE     .75         
         MJE     .3357       
         CJC   14.760000E-12 
         VJC     .75         
         MJC     .5383       
        XCJC    1            
         CJS    0            
         VJS     .75         
          TF  603.700000E-12 
         XTF    1.7          
         VTF    5            
         ITF     .65         
          TR  111.300000E-09 
         XTB    1.5          
          KF    0            
          AF    1            
          CN    2.2          
           D     .52         


**** 07/02/24 03:55:34 ***** PSpice 16.6.0 (October 2012) ***** ID# 0 ********

 ** Profile: "SCHEMATIC1-cc"  [ C:\USERS\SEPTIMIU\DOCUMENTS\DIDACTIC\TCRME\2023\ProiectTCAD-PSpiceFiles\SCHEMATIC1\cc.sim ] 


 ****     SMALL SIGNAL BIAS SOLUTION       TEMPERATURE =   27.000 DEG C


******************************************************************************



 NODE   VOLTAGE     NODE   VOLTAGE     NODE   VOLTAGE     NODE   VOLTAGE


(   IS)    8.0308  (N00230)   18.0000 (N00254)   17.8390 (N00258)   17.8400     

(N00262)   17.1620 




    VOLTAGE SOURCE CURRENTS
    NAME         CURRENT

    V_V1        -3.210E-04

    TOTAL POWER DISSIPATION   5.78E-03  WATTS



          JOB CONCLUDED

**** 07/02/24 03:55:34 ***** PSpice 16.6.0 (October 2012) ***** ID# 0 ********

 ** Profile: "SCHEMATIC1-cc"  [ C:\USERS\SEPTIMIU\DOCUMENTS\DIDACTIC\TCRME\2023\ProiectTCAD-PSpiceFiles\SCHEMATIC1\cc.sim ] 


 ****     JOB STATISTICS SUMMARY


******************************************************************************



  Total job time (using Solver 1)   =         .09
